! 1/10/2022 1:05:13 PM, file used: 20210504_TX1550_0dBm_deembed_OFF.chx
! Z:\PRODUCTIONTESTRESULTS\RXANDRXM\VNA TEMP\VNA_TEMP_1_1570334641.S2P
! CHANNEL.1
! TR.MEASUREMENT
! CORRECTED.DATA
# GHZ S DB R 50.0
! FREQ.GHZ         S11DB            S11A          S21DB            S21A          S12DB            S12A          S22DB            S22A          
!; PortSelection: Port_12
   0.035000000    17.6910100  -74.6705900     3.2481760  105.1235000  -105.2968000   68.0491300   -16.5305500   -0.1365818 
   0.070000000    17.7796200   31.5852200     3.4450720   28.9200400  -107.1658000 -138.3219000   -16.5729500   -1.4217450 
   0.105000000    18.1722800  139.9803000     3.5760340  -47.2376700  -109.3457000  122.0024000   -16.0301500   -8.5891520 
   0.140000000    18.8211800 -112.8523000     3.7052230 -123.5504000  -109.5216000 -119.8435000   -16.6254000  -13.4168300 
   0.175000000    19.0526000   -5.5266360     3.8251970  160.2835000  -113.9283000   -6.2240010   -16.7778400  -16.6635000 
   0.210000000    19.4532200  102.6515000     3.9715360   83.8324200  -102.4243000  -52.6374700   -16.7372900  -20.4505900 
   0.245000000    19.4172400 -150.8767000     4.0601970    7.3645540  -103.8430000 -159.9659000   -16.5762200  -23.7148100 
   0.280000000    19.3298700  -44.5978000     4.1248500  -69.1774700  -100.9327000 -145.8441000   -16.4861400  -26.2163600 
   0.315000000    19.7493300   59.5934000     4.1642270 -145.6841000  -104.6815000  -97.0283800   -16.4978200  -29.2246400 
   0.350000000    19.9476900  167.7909000     4.2265830  137.8592000  -109.1882000    5.6376400   -16.4759800  -33.0722000 
   0.385000000    20.1940700  -84.9926500     4.2714960   61.5669500  -111.8463000  122.9624000   -16.2740500  -36.7619200 
   0.420000000    19.9625500   20.4393600     4.2909970  -14.9343200  -104.1837000 -164.3143000   -16.0810000  -38.8413800 
   0.455000000    20.0365500  124.9902000     4.2888960  -91.4191600  -105.3966000 -101.4519000   -16.1613200  -40.3224800 
   0.490000000    20.6306700 -129.2808000     4.3263430 -167.8264000  -102.6662000  109.4815000   -16.4480700  -43.2860600 
   0.525000000    20.9490000  -23.2514600     4.3025590  116.0344000  -100.7036000  -64.8394000   -16.6017200  -47.4128000 
   0.560000000    20.9257100   83.2882500     4.3804030   39.5481400   -90.8799100  117.4146000   -16.5640700  -50.9391600 
   0.595000000    20.6790000 -171.4747000     4.3636670  -36.9774600  -100.1680000  169.9468000   -16.5528900  -53.1938400 
   0.630000000    20.7114000  -67.9537300     4.3278770 -113.3558000  -110.7107000 -178.0754000   -16.7210100  -55.6203400 
   0.665000000    21.3560400   35.1153500     4.3770070  170.2490000   -98.3691300  -33.9470400   -16.9567500  -59.3039600 
   0.700000000    21.7279700  141.8332000     4.3557200   93.8248000   -98.7395900 -150.5449000   -16.9763100  -63.8177300 
   0.735000000    21.7716000 -111.2412000     4.4198950   17.2850300   -96.9068300   -9.5050260   -16.7874100  -66.5385400 
   0.770000000    21.6684100   -8.5105320     4.3541060  -59.4165500  -105.3617000  -37.1922900   -16.8896500  -67.8055000 
   0.805000000    22.0369900   94.4575700     4.3788830 -135.9225000  -101.7201000   96.5605400   -17.3616700  -71.2298400 
   0.840000000    22.5370100 -159.3667000     4.4083620  147.6939000  -109.1964000  -79.2792400   -17.5267400  -77.8679300 
   0.875000000    22.5750700  -52.5993500     4.4327060   71.2644200  -110.2418000 -126.9605000   -17.1620500  -83.3186900 
   0.910000000    22.2815000   51.5914000     4.4596520   -5.2165160  -106.5123000  164.9527000   -16.8369800  -84.7437400 
   0.945000000    22.4528700  152.8908000     4.4910630  -81.7082400   -99.0856900   93.1714900   -17.0325100  -86.1951100 
   0.980000000    23.0870100 -103.8326000     4.5518470 -158.0107000  -106.3739000  141.5533000   -17.4067300  -90.3713400 
   1.015000000    23.4452800    2.8004790     4.5762130  125.5578000   -98.2479800  -44.5729200   -17.3238400  -95.9980500 
   1.050000000    23.2993800  109.4378000     4.5469480   49.1111400  -105.1736000 -109.0125000   -16.9228400  -99.0615200 
   1.085000000    23.0139000 -146.6695000     4.5812130  -27.4160400  -103.6860000  -90.5306200   -16.8244200  -99.6934700 
   1.120000000    23.1314700  -44.7000000     4.5436500 -103.9654000  -104.2397000  179.6088000   -17.2268800 -101.0902000 
   1.155000000    23.6282500   59.6630500     4.5899570  179.6037000  -112.7039000   11.3770300   -17.6058200 -105.5758000 
   1.190000000    23.6803000  166.5401000     4.5593240  103.0685000  -101.6000000    2.9751000   -17.5763700 -111.1821000 
   1.225000000    23.4712200  -86.7407200     4.6059500   26.7940100  -101.9053000  113.8322000   -17.3380200 -114.2051000 
   1.260000000    22.9686800   15.4481000     4.5394270  -49.6703100  -101.9842000 -102.3957000   -17.4323200 -115.5074000 
   1.295000000    23.0554800  117.0176000     4.5824370 -126.0690000  -104.5373000  -74.1729800   -17.8119800 -118.6701000 
   1.330000000    23.5467300 -138.5518000     4.6394450  157.4011000   -98.9049800  173.8271000   -17.9557600 -124.2002000 
   1.365000000    23.5545200  -32.2132800     4.6089850   80.9300800  -102.1610000 -167.2816000   -17.7254800 -128.4756000 
   1.400000000    23.0560000   72.1081100     4.6491480    4.2963870  -101.2208000  102.8439000   -17.6872700 -129.8770000 
   1.435000000    22.7572700  176.0490000     4.6385350  -72.4416100   -97.2456100   -1.6030070   -18.1533100 -132.2119000 
   1.470000000    23.1273700  -80.4453400     4.6679190 -149.0100000  -101.2746000  -36.4388800   -18.6874800 -138.2164000 
   1.505000000    23.2536300   25.2350500     4.6456690  134.2336000  -101.7686000  -43.5533400   -18.6302400 -144.7866000 
   1.540000000    22.7768000  130.8608000     4.6353930   57.6086000  -101.3251000  171.8013000   -18.3657300 -146.9289000 
   1.575000000    22.1160600 -126.5466000     4.5946660  -18.9870000  -106.3943000  161.6283000   -18.5070600 -146.9972000 
   1.610000000    22.0528400  -24.8450800     4.5856890  -95.6118900  -107.5667000   87.4732300   -18.9822600 -150.5543000 
   1.645000000    22.2999600   80.8191300     4.5691530 -172.1191000   -96.9542600   51.1694500   -18.9857400 -157.4460000 
   1.680000000    22.1321800 -171.1660000     4.5798070  111.3127000  -100.2769000  172.2874000   -18.5249600 -161.7594000 
   1.715000000    21.5983900  -65.3087500     4.5791740   34.8393100  -108.7911000  122.2948000   -18.4390400 -162.8649000 
   1.750000000    21.3558500   37.8803700     4.5622920  -41.6229300   -99.4706600   18.5802200   -18.8647900 -165.7724000 
   1.785000000    21.5604200  142.9742000     4.5323110 -118.0968000  -102.2913000  126.0988000   -19.0552700 -172.0889000 
   1.820000000    21.5485000 -108.7505000     4.5200710  165.4522000  -113.9032000   72.0200300   -18.7360500 -176.7197000 
   1.855000000    21.0055800   -1.3039610     4.5119300   89.1874800  -102.3052000 -138.8748000   -18.6450200 -177.8282000 
   1.890000000    20.6131900  102.1248000     4.5252880   12.8372000  -106.4735000   65.3789000   -19.1701600  179.8657000 
   1.925000000    20.8065500 -153.9501000     4.5163180  -63.5202100   -99.8312500   93.7849400   -19.5486500  173.0288000 
   1.960000000    21.0809700  -45.5679100     4.5029440 -139.8711000  -105.7423000  143.9628000   -19.1851000  167.0835000 
   1.995000000    20.8055700   63.9596400     4.5038340  143.7704000  -103.0498000   -0.6805920   -18.9441600  165.8657000 
   2.030000000    20.2216300  168.9747000     4.4100740   67.2935600  -106.9173000 -178.0060000   -19.4151000  164.6185000 
   2.065000000    20.4051900  -88.0305700     4.3852740   -9.2428290  -111.3810000   13.9169700   -20.0001200  158.5107000 
   2.100000000    21.0368400   19.5509900     4.4552970  -85.7247100   -99.8874300 -133.3369000   -19.8282200  151.7419000 
   2.135000000    20.8517100  130.7366000     4.4368780 -162.2538000  -103.0020000   32.9157600   -19.5550800  150.2552000 
   2.170000000    19.9857800 -121.6442000     4.4441980  121.2684000  -103.2539000   35.5535000   -20.0354000  150.1078000 
   2.205000000    19.6597100  -19.8398700     4.4293180   44.7801900  -102.7374000  173.3281000   -20.6912800  144.5007000 
   2.240000000    20.4454500   85.2645000     4.4234810  -31.5864100  -109.1641000   77.8869700   -20.4006000  137.4449000 
   2.275000000    21.0638400 -163.3398000     4.4227530 -107.7975000  -119.4818000   40.8526500   -19.8773300  135.8925000 
   2.310000000    20.7912100  -52.2711400     4.4069400  175.9023000  -105.6775000 -110.2521000   -20.2374800  135.0598000 
   2.345000000    20.3081200   51.6334200     4.3932270   99.4079100  -100.7428000  -91.0194900   -20.8429800  127.4705000 
   2.380000000    20.9616800  153.3011000     4.3958390   23.0093400  -117.8400000  -44.4028200   -20.2674800  118.2029000 
   2.415000000    21.8624700  -97.4501600     4.3802350  -53.5593800  -101.1071000  109.2808000   -19.4404100  117.0469000 
   2.450000000    21.8480000   14.6575500     4.3833300 -130.1316000  -108.4689000  -65.2529800   -19.7420800  118.7414000 
   2.485000000    21.1029800  119.7953000     4.4569310  153.3433000  -101.9308000  116.5584000   -20.8417500  112.6935000 
   2.520000000    21.8301400 -138.9800000     4.2914610   74.7649900  -112.5628000  118.6002000   -20.2941500  105.8126000 
   2.555000000    21.8910300  -34.9269100     4.3063520   -1.9192250  -100.1448000   18.3350200   -20.4389200  101.1899000 
   2.590000000    22.1415700   69.2972000     4.2961400  -78.3237700   -95.3021900   70.8347200   -20.4117000   96.2323800 
   2.625000000    22.5262300  173.8302000     4.3124460 -154.9084000  -102.0409000 -106.5973000   -20.2653400   91.7116300 
   2.660000000    22.8905800  -79.9778400     4.3171530  128.7398000  -111.8268000 -158.7629000   -20.2056600   88.5657700 
   2.695000000    23.1083100   25.3259100     4.3381910   52.2102800  -101.1922000  100.8340000   -20.2199300   85.3903300 
   2.730000000    23.2595300  130.4282000     4.2989760  -24.0299100  -104.6344000 -126.0963000   -20.3997200   81.5124100 
   2.765000000    23.4482400 -124.8199000     4.2478420 -100.2304000  -109.5087000  109.0509000   -20.4846700   76.7820800 
   2.800000000    23.6430800  -20.4089800     4.2181470 -176.7351000  -109.0848000   58.8078400   -20.4454600   72.1307200 
   2.835000000    23.8488500   84.1433300     4.2381280  107.0194000  -102.6573000  -79.4952000   -20.3962300   68.6485900 
   2.870000000    23.9382700 -172.0892000     4.2236020   30.2022000   -96.4902000 -168.0134000   -20.4343900   65.0434200 
   2.905000000    24.0070300  -68.1103100     4.2393150  -46.0531900   -99.3902600  -65.4222800   -20.5699200   61.1556100 
   2.940000000    24.0526200   36.7647600     4.2663860 -122.8619000   -98.0211600   98.8287200   -20.6384200   56.5347000 
   2.975000000    24.2347900  141.8707000     4.2477200  160.5088000   -95.2641700  158.1670000   -20.6722900   51.8644000 
   3.010000000    24.4013600 -112.9405000     4.2773880   84.0380600  -110.9537000   99.0883200   -20.6202000   48.0794400 
   3.045000000    24.4231600   -7.8315690     4.2502460    7.5462480  -106.6609000   43.3097600   -20.7002000   44.4599300 
   3.080000000    24.4252800   96.9567700     4.2828980  -68.9367300  -103.2174000  154.6506000   -20.7618900   40.9172300 
   3.115000000    24.4302300 -158.8195000     4.2734000 -145.4550000  -113.1457000  -68.5838500   -20.8178700   36.9295700 
   3.150000000    24.4799000  -54.5412400     4.2788320  138.2659000  -101.4240000 -165.6168000   -20.8039200   33.3023500 
   3.185000000    24.6553300   50.0303000     4.2962390   61.6740600  -100.6664000   50.0465000   -20.7091600   29.8415700 
   3.220000000    24.7066300  155.2485000     4.2738700  -14.5706300  -107.2143000   65.8066300   -20.6209000   26.2067600 
   3.255000000    24.7533300 -100.3628000     4.2943360  -91.2253600  -101.9964000  153.5252000   -20.4673600   22.6397800 
   3.290000000    24.7840200    3.7974190     4.2723760 -167.7600000  -104.7894000   45.2597900   -20.3052700   19.1177200 
   3.325000000    24.8507300  108.0852000     4.2798290  115.8553000   -99.0566900 -146.9419000   -20.2199900   15.9792000 
   3.360000000    24.8461300 -147.2107000     4.2615650   39.2624700  -108.8042000  -35.5268300   -20.1784300   12.5553700 
   3.395000000    24.7917700  -42.5376900     4.2753210  -37.3023200  -118.6071000 -148.3967000   -20.2103300    8.7055690 
   3.430000000    24.6613500   61.5381100     4.2544240 -113.7841000  -101.0319000   95.8275100   -20.1687800    4.6090900 
   3.465000000    24.5668900  165.5687000     4.2340090  169.7504000  -106.4820000  -28.1302000   -20.1181500    0.8810035 
   3.500000000    24.5420200  -90.2824600     4.2350470   93.2605400   -95.9363200 -127.4199000   -20.0839100   -2.0360560 
   3.535000000    24.4703800   14.4022200     4.2030350   16.7990200   -98.0269900   60.8265300   -20.1372800   -5.1498890 
   3.570000000    24.3495200  119.2811000     4.2003940  -59.7432600  -103.4357000  -33.3933500   -20.2887300   -8.9671350 
   3.605000000    24.1829200 -136.1304000     4.2061270 -136.2614000   -93.4066600   -7.0113310   -20.3481700  -12.9703900 
   3.640000000    24.0397700  -31.8146900     4.1900830  147.3409000  -101.3799000 -108.1614000   -20.3346800  -16.4931200 
   3.675000000    23.9837400   72.7755400     4.2189890   70.7572600   -97.6723400    1.3581480   -20.3615600  -19.3663500 
   3.710000000    23.8818100  178.1970000     4.1905340   -5.7766160  -108.8744000 -160.6247000   -20.5800500  -22.6135000 
   3.745000000    23.7072800  -76.1590700     4.2156570  -82.2118300  -104.5067000   43.3295100   -20.8466600  -26.8907700 
   3.780000000    23.4526000   29.0634700     4.2188890 -158.8587000  -101.7906000   26.6798500   -20.9110600  -31.7081000 
   3.815000000    23.2332000  134.1214000     4.2195720  124.8054000  -114.7980000 -118.2820000   -20.8357800  -36.0350600 
   3.850000000    23.1432800 -120.8344000     4.2229170   48.2430400  -113.7303000  138.5465000   -20.7886600  -39.2353400 
   3.885000000    23.0604600  -14.8942700     4.2106340  -28.2728400  -100.7167000 -152.0348000   -20.9335900  -42.3460200 
   3.920000000    22.9009700   91.7476900     4.2018870 -104.8201000   -97.9315000   67.7934500   -21.1530300  -46.4142200 
   3.955000000    22.6600200 -161.7915000     4.1907080  178.8309000   -98.2775100 -169.3368000   -21.2174300  -51.1453000 
   3.990000000    22.4464700  -55.5828600     4.1920660  102.3876000  -103.9972000  109.3012000   -21.0931300  -55.5901500 
   4.025000000    22.3201300   50.9984200     4.1764740   25.9646000   -98.2336400  144.2811000   -20.9965900  -58.6443800 
   4.060000000    22.2789200  158.0410000     4.1801340  -50.3354500  -105.5847000  170.4350000   -21.0692600  -60.9392000 
   4.095000000    22.1753000  -94.6324100     4.1763360 -126.7256000  -103.0174000  102.9651000   -21.1974000  -64.0566300 
   4.130000000    22.0086900   12.5379900     4.1704440  156.9111000  -109.9636000 -128.1942000   -21.2623300  -67.9266400 
   4.165000000    21.9395600  119.1111000     4.1859540   80.4563800   -96.4057200  117.4770000   -21.2297100  -71.5162100 
   4.200000000    21.9542100 -134.5058000     4.1773790    3.9070520  -103.8145000  100.9848000   -21.2785900  -74.0788400 
   4.235000000    22.0641400  -27.6057800     4.1659890  -72.6171500  -103.6021000   21.7981100   -21.4526300  -76.9546200 
   4.270000000    22.1443400   79.7129100     4.1688780 -149.1974000  -109.4289000   19.5427800   -21.6840300  -80.6699500 
   4.305000000    22.1411000 -173.1824000     4.1641120  134.1979000  -109.6294000   35.4604500   -21.8681100  -85.5468100 
   4.340000000    22.1490700  -66.4501000     4.1318150   57.6844100  -103.1121000 -155.4089000   -21.9849700  -90.2351200 
   4.375000000    22.2928600   39.5686500     4.1303540  -18.7983300  -105.6377000  -99.1755400   -22.1254500  -94.1785700 
   4.410000000    22.4658000  146.0938000     4.1227250  -95.1843600   -98.3201600 -108.2791000   -22.2587800  -98.4663800 
   4.445000000    22.6149100 -107.3463000     4.1139940 -171.6450000  -115.3397000   97.4175200   -22.4486100 -103.4623000 
   4.480000000    22.6544500   -1.3937950     4.1111530  112.0087000  -106.9036000 -177.9850000   -22.5518400 -108.8323000 
   4.515000000    22.6959000  104.0921000     4.1015240   35.5862800  -113.0315000   54.8164400   -22.5785400 -113.7543000 
   4.550000000    22.8611000 -150.0129000     4.1001560  -40.7890500  -107.1848000 -160.5496000   -22.5652200 -118.4145000 
   4.585000000    23.1041200  -43.2273400     4.1027060 -117.1449000  -105.7238000   52.2609700   -22.5987100 -122.9040000 
   4.620000000    23.3210600   63.3315500     4.0959590  166.3651000   -98.9331100   -4.0969520   -22.6319100 -127.4270000 
   4.655000000    23.4712300  169.3828000     4.0801240   90.0073800   -99.0544100   40.6026200   -22.6960800 -132.0627000 
   4.690000000    23.6557200  -85.2558400     4.0907600   13.5070900   -99.1863900   83.6239700   -22.7492400 -136.4786000 
   4.725000000    23.8954800   19.9096000     4.1093540  -63.0164100  -104.8849000   51.8677700   -22.7499800 -141.4221000 
   4.760000000    24.1465500  125.3185000     4.1188340 -139.5137000  -102.5224000  -74.7735900   -22.6970500 -146.0120000 
   4.795000000    24.3427800 -129.3001000     4.0966990  143.9859000   -98.0657000 -145.7627000   -22.6811900 -149.7879000 
   4.830000000    24.5014200  -24.1374700     4.0967450   67.5223600  -109.4190000  -82.8252600   -22.7841600 -153.2426000 
   4.865000000    24.6456400   80.6326400     4.0698750   -8.9828990  -107.7365000   40.3423300   -23.0082900 -157.5802000 
   4.900000000    24.8363600 -174.6015000     4.0461770  -85.3498700  -106.0701000   93.9083400   -23.1424600 -163.0944000 
   4.935000000    25.0256800  -69.4840000     4.0398600 -161.7743000  -101.4528000  -92.5796700   -23.0981900 -168.9519000 
   4.970000000    25.1339200   35.7862400     4.0140090  121.7361000   -99.5142100 -132.4330000   -22.9100200 -173.1684000 
   5.005000000    25.1914800  140.6576000     4.0188570   45.3787100  -104.2279000  -26.8884300   -22.9266100 -176.2943000 
   5.040000000    25.2660200 -114.9492000     4.0053350  -31.0841500  -103.1176000   20.4259900   -23.1412000  179.6951000 
   5.075000000    25.4643200  -10.2521000     4.0249130 -107.6056000  -102.3298000   10.6618700   -23.3365400  173.6021000 
   5.110000000    25.7172100   94.7263400     4.0264050  175.8402000   -94.8625900 -178.4203000   -23.2434200  167.0305000 
   5.145000000    25.8475400 -160.8608000     4.0262190   99.4140200   -93.3559900   86.1503000   -22.9065400  161.9265000 
   5.180000000    25.8743700  -56.9259600     4.0066190   22.8834000   -98.7875400  155.5146000   -22.6996400  158.3492000 
   5.215000000    25.8867300   46.7988800     4.0250520  -53.5643300  -100.6589000   99.0781400   -22.6594900  154.1079000 
   5.250000000    25.9771300  150.9379000     4.0199870 -129.9792000  -108.6051000   54.6589900   -22.5975800  148.6905000 
   5.285000000    26.0291600 -104.7018000     4.0158600  153.4981000   -93.6366000  137.0045000   -22.3063700  143.5081000 
   5.320000000    25.9690400    0.0486198     4.0080940   77.1994600  -103.1362000 -106.6267000   -21.9004800  139.8759000 
   5.355000000    25.9225800  104.5235000     4.0216000    0.6795877  -101.2144000  -41.8775300   -21.7094200  137.2200000 
   5.390000000    25.8712300 -151.4065000     3.9965310  -75.7009300  -103.4900000  -94.4096000   -21.7280100  133.6614000 
   5.425000000    25.8468200  -46.8585700     3.9920600 -152.1000000  -105.4268000 -141.2332000   -21.6986100  128.6816000 
   5.460000000    25.8028500   57.8087100     3.9700110  131.5629000  -102.0981000 -142.6843000   -21.4131200  124.1725000 
   5.495000000    25.6762500  162.5446000     3.9703960   55.2320400   -94.5905900  -82.7152600   -21.0953700  120.9797000 
   5.530000000    25.5963900  -92.6719100     3.9682990  -21.1408700  -109.4324000 -139.3260000   -21.0049800  118.4685000 
